
T7EFC 000:044 SEGGER J-Link V6.10i Log File (0001ms, 0024ms total)
T7EFC 000:044 DLL Compiled: Oct 25 2016 19:31:51 (0001ms, 0024ms total)
T7EFC 000:044 Logging started @ 2018-05-30 21:25 (0001ms, 0024ms total)
T7EFC 000:045 JLINK_SetWarnOutHandler(...) (0000ms, 0024ms total)
T7EFC 000:045 JLINK_OpenEx(...)
Firmware: J-Link ARM-OB STM32 compiled Aug 22 2012 19:52:04
Hardware: V7.00
S/N: 20090928
Feature(s): RDI,FlashDL,FlashBP,JFlash,GDBFullWEBSRV Webserver running on local port 19080 (0010ms, 0034ms total)
T7EFC 000:045   returns O.K. (0010ms, 0034ms total)
T7EFC 000:055 JLINK_SetErrorOutHandler(...) (0000ms, 0034ms total)
T7EFC 000:055 JLINK_ExecCommand("ProjectFile = "C:\Users\adayimaxiga\Desktop\²ÃÅÐÏµÍ³´®¿Ú\MDK-ARM\JLinkSettings.ini"", ...).   returns 0x00 (0093ms, 0127ms total)
T7EFC 000:148 JLINK_ExecCommand("Device = STM32F405RGTx", ...). Device "STM32F405RG" selected.  returns 0x00 (0001ms, 0128ms total)
T7EFC 000:149 JLINK_ExecCommand("DisableConnectionTimeout", ...).   returns 0x01 (0000ms, 0128ms total)
T7EFC 000:149 JLINK_GetHardwareVersion()  returns 0x11170 (0000ms, 0128ms total)
T7EFC 000:149 JLINK_GetDLLVersion()  returns 61009 (0000ms, 0128ms total)
T7EFC 000:149 JLINK_GetFirmwareString(...) (0000ms, 0128ms total)
T7EFC 000:149 JLINK_GetDLLVersion()  returns 61009 (0000ms, 0128ms total)
T7EFC 000:149 JLINK_GetCompileDateTime() (0000ms, 0128ms total)
T7EFC 000:149 JLINK_GetFirmwareString(...) (0000ms, 0128ms total)
T7EFC 000:149 JLINK_GetHardwareVersion()  returns 0x11170 (0000ms, 0128ms total)
T7EFC 000:149 JLINK_TIF_Select(JLINKARM_TIF_SWD)  returns 0x00 (0001ms, 0129ms total)
T7EFC 000:150 JLINK_SetSpeed(5000) (0000ms, 0129ms total)
T7EFC 000:150 JLINK_GetId() >0x108 TIF>Found SWD-DP with ID 0x2BA01477 >0x0D TIF> >0x28 TIF> >0x0D TIF> >0x28 TIF> >0x0D TIF> >0x28 TIF> >0x0D TIF> >0x28 TIF> >0x0D TIF> >0x21 TIF> >0x0D TIF> >0x28 TIF> >0x0D TIF> >0x28 TIF> >0x0D TIF> >0x28 TIF> >0x0D TIF> >0x21 TIF> >0x0D TIF> >0x21 TIF> >0x0D TIF> >0x28 TIF> >0x0D TIF> >0x21 TIF> >0x0D TIF> >0x21 TIF> >0x0D TIF> >0x28 TIF> >0x0D TIF> >0x21 TIF> >0x0D TIF> >0x21 TIF> >0x0D TIF> >0x28 TIF> >0x0D TIF> >0x21 TIF> >0x0D TIF> >0x21 TIF> >0x0D TIF>
 >0x28 TIF> >0x0D TIF> >0x21 TIF> >0x0D TIF> >0x21 TIF> >0x0D TIF> >0x28 TIF> >0x0D TIF> >0x21 TIF> >0x0D TIF> >0x21 TIF> >0x108 TIF>Found SWD-DP with ID 0x2BA01477 >0x0D TIF> >0x28 TIF> >0x0D TIF> >0x28 TIF> >0x0D TIF> >0x28 TIF> >0x0D TIF> >0x28 TIF> >0x0D TIF> >0x21 TIF> >0x0D TIF> >0x28 TIF> >0x0D TIF> >0x28 TIF> >0x0D TIF> >0x21 TIF> >0x0D TIF> >0x21 TIF> >0x0D TIF> >0x21 TIF>AP-IDR: 0x24770011, Type: AHB-AP >0x0D TIF> >0x28 TIF> >0x0D TIF> >0x28 TIF> >0x0D TIF> >0x28 TIF> >0x0D TIF> >0x21 TIF>
 >0x0D TIF> >0x21 TIF> >0x0D TIF> >0x28 TIF> >0x0D TIF> >0x21 TIF> >0x0D TIF> >0x21 TIF>Found Cortex-M4 r0p1, Little endian. -- CPU_ReadMem(4 bytes @ 0xE000EDF0) -- CPU_WriteMem(4 bytes @ 0xE000EDF0) -- CPU_ReadMem(4 bytes @ 0xE0002000)FPUnit: 6 code (BP) slots and 2 literal slots -- CPU_ReadMem(4 bytes @ 0xE000EDFC) -- CPU_WriteMem(4 bytes @ 0xE000EDFC) -- CPU_ReadMem(4 bytes @ 0xE0001000) -- CPU_WriteMem(4 bytes @ 0xE0001000) -- CPU_ReadMem(4 bytes @ 0xE000ED88) -- CPU_WriteMem(4 bytes @ 0xE000ED88)
 -- CPU_ReadMem(4 bytes @ 0xE000ED88) -- CPU_WriteMem(4 bytes @ 0xE000ED88)CoreSight components:ROMTbl 0 @ E00FF000 -- CPU_ReadMem(16 bytes @ 0xE00FF000) -- CPU_ReadMem(16 bytes @ 0xE000EFF0) -- CPU_ReadMem(16 bytes @ 0xE000EFE0)ROMTbl 0 [0]: FFF0F000, CID: B105E00D, PID: 000BB00C SCS -- CPU_ReadMem(16 bytes @ 0xE0001FF0) -- CPU_ReadMem(16 bytes @ 0xE0001FE0)ROMTbl 0 [1]: FFF02000, CID: B105E00D, PID: 003BB002 DWT -- CPU_ReadMem(16 bytes @ 0xE0002FF0) -- CPU_ReadMem(16 bytes @ 0xE0002FE0)
ROMTbl 0 [2]: FFF03000, CID: B105E00D, PID: 002BB003 FPB -- CPU_ReadMem(16 bytes @ 0xE0000FF0) -- CPU_ReadMem(16 bytes @ 0xE0000FE0)ROMTbl 0 [3]: FFF01000, CID: B105E00D, PID: 003BB001 ITM -- CPU_ReadMem(16 bytes @ 0xE00FF010) -- CPU_ReadMem(16 bytes @ 0xE0040FF0) -- CPU_ReadMem(16 bytes @ 0xE0040FE0)ROMTbl 0 [4]: FFF41000, CID: B105900D, PID: 000BB9A1 TPIU -- CPU_ReadMem(16 bytes @ 0xE0041FF0) -- CPU_ReadMem(16 bytes @ 0xE0041FE0)ROMTbl 0 [5]: FFF42000, CID: B105900D, PID: 000BB925 ETM >0x0D TIF>
 >0x21 TIF>  returns 0x2BA01477 (0033ms, 0162ms total)
T7EFC 000:183 JLINK_GetDLLVersion()  returns 61009 (0000ms, 0162ms total)
T7EFC 000:183 JLINK_CORE_GetFound()  returns 0xE0000FF (0000ms, 0162ms total)
T7EFC 000:183 JLINK_GetDebugInfo(0x100) -- Value=0xE00FF000  returns 0x00 (0000ms, 0162ms total)
T7EFC 000:183 JLINK_GetDebugInfo(0x100) -- Value=0xE00FF000  returns 0x00 (0000ms, 0162ms total)
T7EFC 000:183 JLINK_GetDebugInfo(0x101) -- Value=0xE0041000  returns 0x00 (0000ms, 0162ms total)
T7EFC 000:183 JLINK_GetDebugInfo(0x102) -- Value=0x00000000  returns 0x00 (0000ms, 0162ms total)
T7EFC 000:183 JLINK_GetDebugInfo(0x103) -- Value=0xE0040000  returns 0x00 (0000ms, 0162ms total)
T7EFC 000:183 JLINK_GetDebugInfo(0x104) -- Value=0xE0000000  returns 0x00 (0000ms, 0162ms total)
T7EFC 000:183 JLINK_GetDebugInfo(0x105) -- Value=0xE0001000  returns 0x00 (0000ms, 0162ms total)
T7EFC 000:183 JLINK_GetDebugInfo(0x106) -- Value=0xE0002000  returns 0x00 (0000ms, 0162ms total)
T7EFC 000:183 JLINK_GetDebugInfo(0x107) -- Value=0xE000E000  returns 0x00 (0000ms, 0162ms total)
T7EFC 000:183 JLINK_GetDebugInfo(0x10C) -- Value=0xE000EDF0  returns 0x00 (0000ms, 0162ms total)
T7EFC 000:183 JLINK_ReadMemU32(0xE000EF40, 0x0001 Items, ...) -- CPU is running -- CPU_ReadMem(4 bytes @ 0xE000EF40) - Data: 21 00 11 10  returns 0x01 (0000ms, 0162ms total)
T7EFC 000:183 JLINK_ReadMemU32(0xE000EF44, 0x0001 Items, ...) -- CPU is running -- CPU_ReadMem(4 bytes @ 0xE000EF44) - Data: 11 00 00 11  returns 0x01 (0001ms, 0163ms total)
T7EFC 000:184 JLINK_ReadMemU32(0xE000ED00, 0x0001 Items, ...) -- CPU is running -- CPU_ReadMem(4 bytes @ 0xE000ED00) - Data: 41 C2 0F 41  returns 0x01 (0000ms, 0163ms total)
T7EFC 000:184 JLINK_SetResetType(JLINKARM_RESET_TYPE_NORMAL)  returns JLINKARM_RESET_TYPE_NORMAL (0000ms, 0163ms total)
T7EFC 000:184 JLINK_Reset() -- CPU is running -- CPU_WriteMem(4 bytes @ 0xE000EDF0) -- CPU is running -- CPU_WriteMem(4 bytes @ 0xE000EDFC) >0x35 TIF> -- CPU is running -- CPU_WriteMem(4 bytes @ 0xE000ED0C) -- CPU is running -- CPU_ReadMem(4 bytes @ 0xE000EDF0) -- CPU is running -- CPU_ReadMem(4 bytes @ 0xE000EDF0) -- CPU is running -- CPU_WriteMem(4 bytes @ 0xE000EDF0) -- CPU is running -- CPU_WriteMem(4 bytes @ 0xE000EDFC) -- CPU is running -- CPU_ReadMem(4 bytes @ 0xE000EDF0)
 -- CPU_WriteMem(4 bytes @ 0xE0002000) -- CPU_ReadMem(4 bytes @ 0xE000EDFC) -- CPU_ReadMem(4 bytes @ 0xE0001000) (0021ms, 0184ms total)
T7EFC 000:206 JLINK_ReadReg(R15 (PC))  returns 0x08000258 (0000ms, 0185ms total)
T7EFC 000:206 JLINK_ReadReg(XPSR)  returns 0x01000000 (0000ms, 0185ms total)
T7EFC 000:206 JLINK_Halt()  returns 0x00 (0000ms, 0185ms total)
T7EFC 000:206 JLINK_IsHalted()  returns TRUE (0000ms, 0185ms total)
T7EFC 000:206 JLINK_ReadMemU32(0xE000EDF0, 0x0001 Items, ...) -- CPU_ReadMem(4 bytes @ 0xE000EDF0) - Data: 03 00 03 00  returns 0x01 (0000ms, 0185ms total)
T7EFC 000:206 JLINK_WriteU32(0xE000EDF0, 0xA05F0003) -- CPU_WriteMem(4 bytes @ 0xE000EDF0)  returns 0x00 (0001ms, 0186ms total)
T7EFC 000:207 JLINK_WriteU32(0xE000EDFC, 0x01000000) -- CPU_WriteMem(4 bytes @ 0xE000EDFC)  returns 0x00 (0001ms, 0187ms total)
T7EFC 000:208 JLINK_GetHWStatus(...)  returns 0x00 (0000ms, 0187ms total)
T7EFC 000:208 JLINK_GetNumBPUnits(Type = 0xFFFFFF00)  returns 0x06 (0000ms, 0187ms total)
T7EFC 000:208 JLINK_GetNumBPUnits(Type = 0xF0)  returns 0x2000 (0000ms, 0187ms total)
T7EFC 000:208 JLINK_GetNumWPUnits()  returns 0x04 (0000ms, 0187ms total)
T7EFC 000:208 JLINK_GetSpeed()  returns 0xFA0 (0000ms, 0187ms total)
T7EFC 000:208 JLINK_ReadMemU32(0xE000E004, 0x0001 Items, ...) -- CPU_ReadMem(4 bytes @ 0xE000E004) - Data: 02 00 00 00  returns 0x01 (0002ms, 0189ms total)
T7EFC 000:210 JLINK_ReadMemU32(0xE000E004, 0x0001 Items, ...) -- CPU_ReadMem(4 bytes @ 0xE000E004) - Data: 02 00 00 00  returns 0x01 (0000ms, 0189ms total)
T7EFC 000:210 JLINK_WriteMem(0xE0001000, 0x001C Bytes, ...) - Data: 01 00 00 00 00 00 00 00 00 00 00 00 00 00 00 00 ... -- CPU_WriteMem(28 bytes @ 0xE0001000)  returns 0x1C (0001ms, 0190ms total)
T7EFC 000:211 JLINK_ReadMem (0xE0001000, 0x001C Bytes, ...) -- CPU_ReadMem(28 bytes @ 0xE0001000) - Data: 01 00 00 40 00 00 00 00 00 00 00 00 00 00 00 00 ...  returns 0x00 (0001ms, 0191ms total)
T7EFC 000:212 JLINK_ReadReg(R15 (PC))  returns 0x08000258 (0000ms, 0191ms total)
T7EFC 000:212 JLINK_ReadReg(XPSR)  returns 0x01000000 (0000ms, 0191ms total)
T7EFC 000:328 JLINK_SetResetType(JLINKARM_RESET_TYPE_NORMAL)  returns JLINKARM_RESET_TYPE_NORMAL (0000ms, 0191ms total)
T7EFC 000:328 JLINK_Reset() -- CPU_WriteMem(4 bytes @ 0xE000EDF0) -- CPU_WriteMem(4 bytes @ 0xE000EDFC) >0x35 TIF> -- CPU_WriteMem(4 bytes @ 0xE000ED0C) -- CPU_ReadMem(4 bytes @ 0xE000EDF0) -- CPU_ReadMem(4 bytes @ 0xE000EDF0) -- CPU_WriteMem(4 bytes @ 0xE000EDF0) -- CPU_WriteMem(4 bytes @ 0xE000EDFC) -- CPU is running -- CPU_ReadMem(4 bytes @ 0xE000EDF0) -- CPU_WriteMem(4 bytes @ 0xE0002000) -- CPU_ReadMem(4 bytes @ 0xE000EDFC) -- CPU_ReadMem(4 bytes @ 0xE0001000) (0024ms, 0215ms total)
T7EFC 000:352 JLINK_ReadReg(R15 (PC))  returns 0x08000258 (0000ms, 0215ms total)
T7EFC 000:352 JLINK_ReadReg(XPSR)  returns 0x01000000 (0000ms, 0215ms total)
T7EFC 000:354 JLINK_ReadMem (0x08000258, 0x003C Bytes, ...) -- CPU_ReadMem(128 bytes @ 0x08000240) -- Updating C cache (128 bytes @ 0x08000240) -- Read from C cache (60 bytes @ 0x08000258) - Data: 06 48 80 47 06 48 00 47 FE E7 FE E7 FE E7 FE E7 ...  returns 0x00 (0003ms, 0218ms total)
T7EFC 002:653 JLINK_ReadMem (0x40005004, 0x0004 Bytes, ...) -- CPU_ReadMem(4 bytes @ 0x40005004) - Data: 00 00 00 00  returns 0x00 (0000ms, 0218ms total)
T7EFC 002:663 JLINK_ReadMem (0x40005004, 0x0004 Bytes, ...) -- CPU_ReadMem(4 bytes @ 0x40005004) - Data: 00 00 00 00  returns 0x00 (0001ms, 0219ms total)
T7EFC 002:664 JLINK_ReadMem (0x40005004, 0x0004 Bytes, ...) -- CPU_ReadMem(4 bytes @ 0x40005004) - Data: 00 00 00 00  returns 0x00 (0000ms, 0219ms total)
T7EFC 002:685 JLINK_ReadMem (0x2000000C, 0x0004 Bytes, ...) -- CPU_ReadMem(64 bytes @ 0x20000000) -- Updating C cache (64 bytes @ 0x20000000) -- Read from C cache (4 bytes @ 0x2000000C) - Data: 40 00 00 D3  returns 0x00 (0001ms, 0220ms total)
T7EFC 002:697 JLINK_ReadMem (0x20005900, 0x0002 Bytes, ...) -- CPU_ReadMem(64 bytes @ 0x20005900) -- Updating C cache (64 bytes @ 0x20005900) -- Read from C cache (2 bytes @ 0x20005900) - Data: 00 00  returns 0x00 (0002ms, 0222ms total)
T7EFC 002:710 JLINK_ReadMem (0x200058C4, 0x0001 Bytes, ...) -- CPU_ReadMem(64 bytes @ 0x200058C0) -- Updating C cache (64 bytes @ 0x200058C0) -- Read from C cache (1 bytes @ 0x200058C4) - Data: 01  returns 0x00 (0001ms, 0223ms total)
T7EFC 002:752 JLINK_ReadMem (0x20005934, 0x0020 Bytes, ...) -- CPU_ReadMem(64 bytes @ 0x20005940) -- Updating C cache (64 bytes @ 0x20005940) -- Read from C cache (32 bytes @ 0x20005934) - Data: A0 04 00 00 DC A1 10 00 00 00 00 C7 45 00 00 00 ...  returns 0x00 (0002ms, 0225ms total)
T7EFC 002:768 JLINK_ReadMem (0x40004C04, 0x0004 Bytes, ...) -- CPU_ReadMem(4 bytes @ 0x40004C04) - Data: 00 00 00 00  returns 0x00 (0001ms, 0226ms total)
T7EFC 002:771 JLINK_ReadMem (0x40004C04, 0x0004 Bytes, ...) -- CPU_ReadMem(4 bytes @ 0x40004C04) - Data: 00 00 00 00  returns 0x00 (0000ms, 0226ms total)
T7EFC 002:771 JLINK_ReadMem (0x40004C04, 0x0004 Bytes, ...) -- CPU_ReadMem(4 bytes @ 0x40004C04) - Data: 00 00 00 00  returns 0x00 (0001ms, 0227ms total)
T14E8 002:836 JLINK_SetBPEx(Addr = 0x08001930, Type = 0xFFFFFFF2)  returns 0x00000001 (0000ms, 0227ms total)
T14E8 002:836 JLINK_SetBPEx(Addr = 0x08001380, Type = 0xFFFFFFF2)  returns 0x00000002 (0000ms, 0227ms total)
T14E8 002:836 JLINK_Go() -- CPU_WriteMem(4 bytes @ 0xE0002000) -- CPU_WriteMem(4 bytes @ 0xE0002000) -- CPU_ReadMem(4 bytes @ 0xE0001000) -- CPU_WriteMem(4 bytes @ 0xE0002008) -- CPU_WriteMem(4 bytes @ 0xE000200C) -- CPU_WriteMem(4 bytes @ 0xE0002010) -- CPU_WriteMem(4 bytes @ 0xE0002014) -- CPU_WriteMem(4 bytes @ 0xE0002018) -- CPU_WriteMem(4 bytes @ 0xE000201C) -- CPU_WriteMem(4 bytes @ 0xE0001004) (0006ms, 0233ms total)
T14E8 002:943 JLINK_IsHalted()  returns TRUE (0003ms, 0236ms total)
T14E8 002:946 JLINK_Halt()  returns 0x00 (0000ms, 0233ms total)
T14E8 002:946 JLINK_IsHalted()  returns TRUE (0000ms, 0233ms total)
T14E8 002:946 JLINK_IsHalted()  returns TRUE (0000ms, 0233ms total)
T14E8 002:946 JLINK_IsHalted()  returns TRUE (0000ms, 0233ms total)
T14E8 002:946 JLINK_ReadReg(R15 (PC))  returns 0x08001930 (0000ms, 0233ms total)
T14E8 002:946 JLINK_ReadReg(XPSR)  returns 0x61000000 (0000ms, 0233ms total)
T14E8 002:946 JLINK_ClrBPEx(BPHandle = 0x00000001)  returns 0x00 (0000ms, 0233ms total)
T14E8 002:946 JLINK_ClrBPEx(BPHandle = 0x00000002)  returns 0x00 (0000ms, 0233ms total)
T14E8 002:946 JLINK_ReadMemU32(0xE000ED30, 0x0001 Items, ...) -- CPU_ReadMem(4 bytes @ 0xE000ED30) - Data: 03 00 00 00  returns 0x01 (0000ms, 0233ms total)
T14E8 002:946 JLINK_ReadMemU32(0xE0001028, 0x0001 Items, ...) -- CPU_ReadMem(4 bytes @ 0xE0001028) - Data: 00 00 00 00  returns 0x01 (0001ms, 0234ms total)
T14E8 002:947 JLINK_ReadMemU32(0xE0001038, 0x0001 Items, ...) -- CPU_ReadMem(4 bytes @ 0xE0001038) - Data: 00 02 00 00  returns 0x01 (0000ms, 0234ms total)
T14E8 002:947 JLINK_ReadMemU32(0xE0001048, 0x0001 Items, ...) -- CPU_ReadMem(4 bytes @ 0xE0001048) - Data: 00 00 00 00  returns 0x01 (0000ms, 0234ms total)
T14E8 002:947 JLINK_ReadMemU32(0xE0001058, 0x0001 Items, ...) -- CPU_ReadMem(4 bytes @ 0xE0001058) - Data: 00 00 00 00  returns 0x01 (0001ms, 0235ms total)
T14E8 002:948 JLINK_ReadReg(R0)  returns 0x08001931 (0000ms, 0235ms total)
T14E8 002:948 JLINK_ReadReg(R1)  returns 0x20005E00 (0000ms, 0235ms total)
T14E8 002:948 JLINK_ReadReg(R2)  returns 0x00000000 (0000ms, 0235ms total)
T14E8 002:948 JLINK_ReadReg(R3)  returns 0x080013CF (0000ms, 0235ms total)
T14E8 002:948 JLINK_ReadReg(R4)  returns 0x08003C14 (0000ms, 0235ms total)
T14E8 002:948 JLINK_ReadReg(R5)  returns 0x08003C14 (0000ms, 0235ms total)
T14E8 002:948 JLINK_ReadReg(R6)  returns 0x00000000 (0000ms, 0235ms total)
T14E8 002:948 JLINK_ReadReg(R7)  returns 0x00000000 (0000ms, 0235ms total)
T14E8 002:948 JLINK_ReadReg(R8)  returns 0x00000000 (0000ms, 0235ms total)
T14E8 002:948 JLINK_ReadReg(R9)  returns 0x00000000 (0000ms, 0235ms total)
T14E8 002:948 JLINK_ReadReg(R10)  returns 0x00000000 (0000ms, 0235ms total)
T14E8 002:948 JLINK_ReadReg(R11)  returns 0x00000000 (0000ms, 0235ms total)
T14E8 002:948 JLINK_ReadReg(R12)  returns 0x00000000 (0000ms, 0235ms total)
T14E8 002:948 JLINK_ReadReg(R13 (SP))  returns 0x20005E00 (0000ms, 0235ms total)
T14E8 002:948 JLINK_ReadReg(R14)  returns 0x080002BD (0000ms, 0235ms total)
T14E8 002:948 JLINK_ReadReg(R15 (PC))  returns 0x08001930 (0000ms, 0235ms total)
T14E8 002:948 JLINK_ReadReg(XPSR)  returns 0x61000000 (0000ms, 0235ms total)
T14E8 002:948 JLINK_ReadReg(MSP)  returns 0x20005E00 (0000ms, 0235ms total)
T14E8 002:948 JLINK_ReadReg(PSP)  returns 0x00000000 (0000ms, 0235ms total)
T14E8 002:948 JLINK_ReadReg(CFBP)  returns 0x00000000 (0000ms, 0235ms total)
T14E8 002:948 JLINK_ReadReg(FPSCR)  returns 0x00000000 (0005ms, 0240ms total)
T14E8 002:953 JLINK_ReadReg(FPS0)  returns 0x00000000 (0000ms, 0240ms total)
T14E8 002:953 JLINK_ReadReg(FPS1)  returns 0x00000000 (0000ms, 0240ms total)
T14E8 002:953 JLINK_ReadReg(FPS2)  returns 0x00000000 (0000ms, 0240ms total)
T14E8 002:953 JLINK_ReadReg(FPS3)  returns 0x00000000 (0000ms, 0240ms total)
T14E8 002:953 JLINK_ReadReg(FPS4)  returns 0x00000000 (0000ms, 0240ms total)
T14E8 002:953 JLINK_ReadReg(FPS5)  returns 0x00000000 (0000ms, 0240ms total)
T14E8 002:953 JLINK_ReadReg(FPS6)  returns 0x00000000 (0000ms, 0240ms total)
T14E8 002:953 JLINK_ReadReg(FPS7)  returns 0x00000000 (0000ms, 0240ms total)
T14E8 002:953 JLINK_ReadReg(FPS8)  returns 0x00000000 (0000ms, 0240ms total)
T14E8 002:953 JLINK_ReadReg(FPS9)  returns 0x00000000 (0000ms, 0240ms total)
T14E8 002:953 JLINK_ReadReg(FPS10)  returns 0x00000000 (0000ms, 0240ms total)
T14E8 002:953 JLINK_ReadReg(FPS11)  returns 0x00000000 (0000ms, 0240ms total)
T14E8 002:953 JLINK_ReadReg(FPS12)  returns 0x00000000 (0000ms, 0240ms total)
T14E8 002:953 JLINK_ReadReg(FPS13)  returns 0x00000000 (0000ms, 0240ms total)
T14E8 002:953 JLINK_ReadReg(FPS14)  returns 0x00000000 (0000ms, 0240ms total)
T14E8 002:953 JLINK_ReadReg(FPS15)  returns 0x00000000 (0000ms, 0240ms total)
T14E8 002:953 JLINK_ReadReg(FPS16)  returns 0x00000000 (0000ms, 0240ms total)
T14E8 002:953 JLINK_ReadReg(FPS17)  returns 0x00000000 (0000ms, 0240ms total)
T14E8 002:953 JLINK_ReadReg(FPS18)  returns 0x00000000 (0000ms, 0240ms total)
T14E8 002:953 JLINK_ReadReg(FPS19)  returns 0x00000000 (0000ms, 0240ms total)
T14E8 002:953 JLINK_ReadReg(FPS20)  returns 0x00000000 (0000ms, 0240ms total)
T14E8 002:953 JLINK_ReadReg(FPS21)  returns 0x00000000 (0000ms, 0240ms total)
T14E8 002:953 JLINK_ReadReg(FPS22)  returns 0x00000000 (0000ms, 0240ms total)
T14E8 002:953 JLINK_ReadReg(FPS23)  returns 0x00000000 (0000ms, 0240ms total)
T14E8 002:953 JLINK_ReadReg(FPS24)  returns 0x00000000 (0000ms, 0240ms total)
T14E8 002:953 JLINK_ReadReg(FPS25)  returns 0x00000000 (0000ms, 0240ms total)
T14E8 002:953 JLINK_ReadReg(FPS26)  returns 0x00000000 (0000ms, 0240ms total)
T14E8 002:953 JLINK_ReadReg(FPS27)  returns 0x00000000 (0000ms, 0240ms total)
T14E8 002:953 JLINK_ReadReg(FPS28)  returns 0x00000000 (0000ms, 0240ms total)
T14E8 002:953 JLINK_ReadReg(FPS29)  returns 0x00000000 (0000ms, 0240ms total)
T14E8 002:953 JLINK_ReadReg(FPS30)  returns 0x00000000 (0000ms, 0240ms total)
T14E8 002:953 JLINK_ReadReg(FPS31)  returns 0x00000000 (0000ms, 0240ms total)
T7EFC 002:954 JLINK_ReadMem (0x40005004, 0x0004 Bytes, ...) -- CPU_ReadMem(4 bytes @ 0x40005004) - Data: 00 00 00 00  returns 0x00 (0001ms, 0241ms total)
T7EFC 002:955 JLINK_ReadMem (0x2000000C, 0x0004 Bytes, ...) -- CPU_ReadMem(64 bytes @ 0x20000000) -- Updating C cache (64 bytes @ 0x20000000) -- Read from C cache (4 bytes @ 0x2000000C) - Data: 00 00 00 00  returns 0x00 (0001ms, 0242ms total)
T7EFC 002:956 JLINK_ReadMem (0x20005900, 0x0002 Bytes, ...) -- CPU_ReadMem(64 bytes @ 0x20005900) -- Updating C cache (64 bytes @ 0x20005900) -- Read from C cache (2 bytes @ 0x20005900) - Data: 00 00  returns 0x00 (0001ms, 0243ms total)
T7EFC 002:958 JLINK_ReadMem (0x200058C4, 0x0001 Bytes, ...) -- CPU_ReadMem(64 bytes @ 0x200058C0) -- Updating C cache (64 bytes @ 0x200058C0) -- Read from C cache (1 bytes @ 0x200058C4) - Data: 00  returns 0x00 (0001ms, 0245ms total)
T7EFC 002:960 JLINK_ReadMem (0x20005934, 0x0020 Bytes, ...) -- CPU_ReadMem(64 bytes @ 0x20005940) -- Updating C cache (64 bytes @ 0x20005940) -- Read from C cache (32 bytes @ 0x20005934) - Data: 00 00 00 00 00 00 00 00 00 00 00 00 00 00 00 00 ...  returns 0x00 (0001ms, 0246ms total)
T7EFC 002:962 JLINK_ReadMem (0x40004C04, 0x0004 Bytes, ...) -- CPU_ReadMem(4 bytes @ 0x40004C04) - Data: 00 00 00 00  returns 0x00 (0000ms, 0246ms total)
T14E8 003:379 JLINK_SetBPEx(Addr = 0x08001380, Type = 0xFFFFFFF2)  returns 0x00000003 (0000ms, 0246ms total)
T14E8 003:379 JLINK_Go() -- CPU_WriteMem(4 bytes @ 0xE0002000) -- CPU_ReadMem(4 bytes @ 0xE0001000) -- CPU_WriteMem(4 bytes @ 0xE0002008) -- CPU_WriteMem(4 bytes @ 0xE000200C) (0003ms, 0249ms total)
T14E8 003:483 JLINK_IsHalted()  returns FALSE (0000ms, 0249ms total)
T14E8 003:584 JLINK_IsHalted()  returns FALSE (0000ms, 0249ms total)
T14E8 003:685 JLINK_IsHalted()  returns FALSE (0000ms, 0249ms total)
T14E8 003:786 JLINK_IsHalted()  returns FALSE (0000ms, 0249ms total)
T14E8 003:887 JLINK_ReadMemU32(0xE0001004, 0x0001 Items, ...) -- CPU is running -- CPU_ReadMem(4 bytes @ 0xE0001004) - Data: 02 9D 10 05  returns 0x01 (0001ms, 0250ms total)
T7EFC 003:889 JLINK_ReadMem (0x40005004, 0x0004 Bytes, ...) -- CPU is running -- CPU_ReadMem(4 bytes @ 0x40005004) - Data: 00 00 00 00  returns 0x00 (0001ms, 0251ms total)
T7EFC 003:891 JLINK_ReadMem (0x2000000C, 0x0004 Bytes, ...) -- CPU is running -- CPU_ReadMem(4 bytes @ 0x2000000C) - Data: D8 21 00 20  returns 0x00 (0001ms, 0252ms total)
T7EFC 003:893 JLINK_ReadMem (0x20005900, 0x0002 Bytes, ...) -- CPU is running -- CPU_ReadMem(2 bytes @ 0x20005900) - Data: 00 00  returns 0x00 (0001ms, 0253ms total)
T7EFC 003:894 JLINK_ReadMem (0x200058C4, 0x0001 Bytes, ...) -- CPU is running -- CPU_ReadMem(1 bytes @ 0x200058C4) - Data: 01  returns 0x00 (0002ms, 0255ms total)
T7EFC 003:903 JLINK_ReadMem (0x20005934, 0x0020 Bytes, ...) -- CPU is running -- CPU_ReadMem(32 bytes @ 0x20005934) - Data: 00 00 00 00 00 00 00 00 00 00 00 00 00 00 00 00 ...  returns 0x00 (0002ms, 0257ms total)
T7EFC 003:905 JLINK_ReadMem (0x40004C04, 0x0004 Bytes, ...) -- CPU is running -- CPU_ReadMem(4 bytes @ 0x40004C04) - Data: 00 00 00 00  returns 0x00 (0001ms, 0258ms total)
T14E8 003:906 JLINK_IsHalted()  returns FALSE (0001ms, 0259ms total)
T14E8 004:009 JLINK_IsHalted()  returns FALSE (0000ms, 0258ms total)
T14E8 004:110 JLINK_IsHalted()  returns FALSE (0001ms, 0259ms total)
T14E8 004:211 JLINK_IsHalted()  returns FALSE (0001ms, 0259ms total)
T14E8 004:312 JLINK_IsHalted()  returns FALSE (0001ms, 0259ms total)
T14E8 004:413 JLINK_ReadMemU32(0xE0001004, 0x0001 Items, ...) -- CPU is running - Data: 02 9D 10 05  returns 0x01 (0001ms, 0259ms total)
T7EFC 004:414 JLINK_ReadMem (0x40005004, 0x0004 Bytes, ...) -- CPU is running -- CPU_ReadMem(4 bytes @ 0x40005004) - Data: 00 00 00 00  returns 0x00 (0001ms, 0260ms total)
T7EFC 004:415 JLINK_ReadMem (0x2000000C, 0x0004 Bytes, ...) -- CPU is running -- CPU_ReadMem(4 bytes @ 0x2000000C) - Data: D8 21 00 20  returns 0x00 (0001ms, 0261ms total)
T7EFC 004:416 JLINK_ReadMem (0x20005900, 0x0002 Bytes, ...) -- CPU is running -- CPU_ReadMem(2 bytes @ 0x20005900) - Data: 00 00  returns 0x00 (0001ms, 0262ms total)
T7EFC 004:417 JLINK_ReadMem (0x200058C4, 0x0001 Bytes, ...) -- CPU is running -- CPU_ReadMem(1 bytes @ 0x200058C4) - Data: 01  returns 0x00 (0001ms, 0263ms total)
T7EFC 004:424 JLINK_ReadMem (0x20005934, 0x0020 Bytes, ...) -- CPU is running -- CPU_ReadMem(32 bytes @ 0x20005934) - Data: A0 04 00 00 DC A1 10 00 00 00 00 C7 45 00 00 00 ...  returns 0x00 (0002ms, 0265ms total)
T7EFC 004:427 JLINK_ReadMem (0x40004C04, 0x0004 Bytes, ...) -- CPU is running -- CPU_ReadMem(4 bytes @ 0x40004C04) - Data: 63 00 00 00  returns 0x00 (0002ms, 0267ms total)
T14E8 004:431 JLINK_IsHalted()  returns TRUE (0004ms, 0271ms total)
T14E8 004:435 JLINK_Halt()  returns 0x00 (0000ms, 0267ms total)
T14E8 004:435 JLINK_IsHalted()  returns TRUE (0000ms, 0267ms total)
T14E8 004:435 JLINK_IsHalted()  returns TRUE (0000ms, 0267ms total)
T14E8 004:435 JLINK_IsHalted()  returns TRUE (0000ms, 0267ms total)
T14E8 004:435 JLINK_ReadReg(R15 (PC))  returns 0x08001380 (0000ms, 0267ms total)
T14E8 004:435 JLINK_ReadReg(XPSR)  returns 0x61000044 (0000ms, 0267ms total)
T14E8 004:435 JLINK_ClrBPEx(BPHandle = 0x00000003)  returns 0x00 (0000ms, 0267ms total)
T14E8 004:435 JLINK_ReadMemU32(0xE000ED30, 0x0001 Items, ...) -- CPU_ReadMem(4 bytes @ 0xE000ED30) - Data: 03 00 00 00  returns 0x01 (0002ms, 0269ms total)
T14E8 004:437 JLINK_ReadMemU32(0xE0001028, 0x0001 Items, ...) -- CPU_ReadMem(4 bytes @ 0xE0001028) - Data: 00 00 00 00  returns 0x01 (0000ms, 0269ms total)
T14E8 004:437 JLINK_ReadMemU32(0xE0001038, 0x0001 Items, ...) -- CPU_ReadMem(4 bytes @ 0xE0001038) - Data: 00 02 00 00  returns 0x01 (0001ms, 0270ms total)
T14E8 004:438 JLINK_ReadMemU32(0xE0001048, 0x0001 Items, ...) -- CPU_ReadMem(4 bytes @ 0xE0001048) - Data: 00 00 00 00  returns 0x01 (0001ms, 0271ms total)
T14E8 004:439 JLINK_ReadMemU32(0xE0001058, 0x0001 Items, ...) -- CPU_ReadMem(4 bytes @ 0xE0001058) - Data: 00 00 00 00  returns 0x01 (0001ms, 0272ms total)
T14E8 004:440 JLINK_ReadReg(R0)  returns 0x00000001 (0000ms, 0272ms total)
T14E8 004:440 JLINK_ReadReg(R1)  returns 0x00000000 (0000ms, 0272ms total)
T14E8 004:440 JLINK_ReadReg(R2)  returns 0x00000000 (0000ms, 0272ms total)
T14E8 004:440 JLINK_ReadReg(R3)  returns 0x00000000 (0000ms, 0272ms total)
T14E8 004:440 JLINK_ReadReg(R4)  returns 0x10000000 (0000ms, 0272ms total)
T14E8 004:440 JLINK_ReadReg(R5)  returns 0xE000ED04 (0000ms, 0272ms total)
T14E8 004:440 JLINK_ReadReg(R6)  returns 0x20003CF4 (0000ms, 0272ms total)
T14E8 004:440 JLINK_ReadReg(R7)  returns 0x00000000 (0000ms, 0272ms total)
T14E8 004:441 JLINK_ReadReg(R8)  returns 0x00000000 (0000ms, 0272ms total)
T14E8 004:441 JLINK_ReadReg(R9)  returns 0x00000000 (0000ms, 0272ms total)
T14E8 004:441 JLINK_ReadReg(R10)  returns 0x00000000 (0000ms, 0272ms total)
T14E8 004:441 JLINK_ReadReg(R11)  returns 0x00000000 (0000ms, 0272ms total)
T14E8 004:441 JLINK_ReadReg(R12)  returns 0x00000000 (0000ms, 0272ms total)
T14E8 004:441 JLINK_ReadReg(R13 (SP))  returns 0x20005DB8 (0000ms, 0272ms total)
T14E8 004:441 JLINK_ReadReg(R14)  returns 0xFFFFFFFD (0000ms, 0272ms total)
T14E8 004:441 JLINK_ReadReg(R15 (PC))  returns 0x08001380 (0000ms, 0272ms total)
T14E8 004:441 JLINK_ReadReg(XPSR)  returns 0x61000044 (0000ms, 0272ms total)
T14E8 004:441 JLINK_ReadReg(MSP)  returns 0x20005DB8 (0000ms, 0272ms total)
T14E8 004:441 JLINK_ReadReg(PSP)  returns 0x20002310 (0000ms, 0272ms total)
T14E8 004:441 JLINK_ReadReg(CFBP)  returns 0x00000000 (0000ms, 0272ms total)
T14E8 004:441 JLINK_ReadReg(FPSCR)  returns 0x00000000 (0006ms, 0278ms total)
T14E8 004:448 JLINK_ReadReg(FPS0)  returns 0x40400000 (0000ms, 0278ms total)
T14E8 004:448 JLINK_ReadReg(FPS1)  returns 0x00000000 (0000ms, 0278ms total)
T14E8 004:448 JLINK_ReadReg(FPS2)  returns 0x00000000 (0000ms, 0278ms total)
T14E8 004:448 JLINK_ReadReg(FPS3)  returns 0x00000000 (0000ms, 0278ms total)
T14E8 004:448 JLINK_ReadReg(FPS4)  returns 0x00000000 (0000ms, 0278ms total)
T14E8 004:448 JLINK_ReadReg(FPS5)  returns 0x00000000 (0000ms, 0278ms total)
T14E8 004:448 JLINK_ReadReg(FPS6)  returns 0x00000000 (0000ms, 0278ms total)
T14E8 004:448 JLINK_ReadReg(FPS7)  returns 0x00000000 (0000ms, 0278ms total)
T14E8 004:448 JLINK_ReadReg(FPS8)  returns 0x00000000 (0000ms, 0278ms total)
T14E8 004:448 JLINK_ReadReg(FPS9)  returns 0x00000000 (0000ms, 0278ms total)
T14E8 004:448 JLINK_ReadReg(FPS10)  returns 0x00000000 (0000ms, 0278ms total)
T14E8 004:448 JLINK_ReadReg(FPS11)  returns 0x00000000 (0000ms, 0278ms total)
T14E8 004:448 JLINK_ReadReg(FPS12)  returns 0x00000000 (0000ms, 0278ms total)
T14E8 004:448 JLINK_ReadReg(FPS13)  returns 0x00000000 (0000ms, 0278ms total)
T14E8 004:448 JLINK_ReadReg(FPS14)  returns 0x00000000 (0000ms, 0278ms total)
T14E8 004:448 JLINK_ReadReg(FPS15)  returns 0x00000000 (0000ms, 0278ms total)
T14E8 004:448 JLINK_ReadReg(FPS16)  returns 0x3F800000 (0000ms, 0278ms total)
T14E8 004:448 JLINK_ReadReg(FPS17)  returns 0x40000000 (0000ms, 0278ms total)
T14E8 004:448 JLINK_ReadReg(FPS18)  returns 0x40400000 (0000ms, 0278ms total)
T14E8 004:448 JLINK_ReadReg(FPS19)  returns 0x00000000 (0000ms, 0278ms total)
T14E8 004:448 JLINK_ReadReg(FPS20)  returns 0x00000000 (0000ms, 0278ms total)
T14E8 004:448 JLINK_ReadReg(FPS21)  returns 0x00000000 (0001ms, 0279ms total)
T14E8 004:449 JLINK_ReadReg(FPS22)  returns 0x00000000 (0000ms, 0279ms total)
T14E8 004:449 JLINK_ReadReg(FPS23)  returns 0x00000000 (0000ms, 0279ms total)
T14E8 004:449 JLINK_ReadReg(FPS24)  returns 0x00000000 (0000ms, 0279ms total)
T14E8 004:449 JLINK_ReadReg(FPS25)  returns 0x00000000 (0000ms, 0279ms total)
T14E8 004:449 JLINK_ReadReg(FPS26)  returns 0x00000000 (0000ms, 0279ms total)
T14E8 004:449 JLINK_ReadReg(FPS27)  returns 0x00000000 (0000ms, 0279ms total)
T14E8 004:449 JLINK_ReadReg(FPS28)  returns 0x00000000 (0000ms, 0279ms total)
T14E8 004:449 JLINK_ReadReg(FPS29)  returns 0x00000000 (0000ms, 0279ms total)
T14E8 004:449 JLINK_ReadReg(FPS30)  returns 0x00000000 (0000ms, 0279ms total)
T14E8 004:449 JLINK_ReadReg(FPS31)  returns 0x00000000 (0000ms, 0279ms total)
T7EFC 004:450 JLINK_ReadMem (0x20005DDC, 0x0004 Bytes, ...) -- CPU_ReadMem(64 bytes @ 0x20005DC0) -- Updating C cache (64 bytes @ 0x20005DC0) -- Read from C cache (4 bytes @ 0x20005DDC) - Data: FD FF FF FF  returns 0x00 (0002ms, 0281ms total)
T7EFC 004:452 JLINK_ReadMem (0x20002328, 0x0004 Bytes, ...) -- CPU_ReadMem(64 bytes @ 0x20002300) -- Updating C cache (64 bytes @ 0x20002300) -- Read from C cache (4 bytes @ 0x20002328) - Data: 9C 1D 00 08  returns 0x00 (0002ms, 0283ms total)
T7EFC 004:454 JLINK_ReadMem (0x2000232C, 0x0004 Bytes, ...) -- Read from C cache (4 bytes @ 0x2000232C) - Data: 00 00 00 61  returns 0x00 (0000ms, 0283ms total)
T7EFC 004:454 JLINK_ReadMem (0x20002324, 0x0004 Bytes, ...) -- Read from C cache (4 bytes @ 0x20002324) - Data: F1 1E 00 08  returns 0x00 (0000ms, 0283ms total)
T7EFC 004:454 JLINK_ReadMem (0xE000ED28, 0x0004 Bytes, ...) -- CPU_ReadMem(4 bytes @ 0xE000ED28) - Data: 00 00 00 00  returns 0x00 (0001ms, 0284ms total)
T7EFC 004:462 JLINK_ReadMem (0x40005004, 0x0004 Bytes, ...) -- CPU_ReadMem(4 bytes @ 0x40005004) - Data: 00 00 00 00  returns 0x00 (0001ms, 0285ms total)
T7EFC 004:463 JLINK_ReadMem (0x2000000C, 0x0004 Bytes, ...) -- CPU_ReadMem(64 bytes @ 0x20000000) -- Updating C cache (64 bytes @ 0x20000000) -- Read from C cache (4 bytes @ 0x2000000C) - Data: D8 21 00 20  returns 0x00 (0002ms, 0287ms total)
T7EFC 004:465 JLINK_ReadMem (0x20005900, 0x0002 Bytes, ...) -- CPU_ReadMem(64 bytes @ 0x20005900) -- Updating C cache (64 bytes @ 0x20005900) -- Read from C cache (2 bytes @ 0x20005900) - Data: 00 00  returns 0x00 (0002ms, 0289ms total)
T7EFC 004:467 JLINK_ReadMem (0x200058C4, 0x0001 Bytes, ...) -- CPU_ReadMem(64 bytes @ 0x200058C0) -- Updating C cache (64 bytes @ 0x200058C0) -- Read from C cache (1 bytes @ 0x200058C4) - Data: 01  returns 0x00 (0002ms, 0291ms total)
T7EFC 004:474 JLINK_ReadMem (0x20005934, 0x0020 Bytes, ...) -- CPU_ReadMem(64 bytes @ 0x20005940) -- Updating C cache (64 bytes @ 0x20005940) -- Read from C cache (32 bytes @ 0x20005934) - Data: A0 04 00 00 DC A1 10 00 00 00 00 C7 45 00 00 00 ...  returns 0x00 (0002ms, 0293ms total)
T7EFC 004:476 JLINK_ReadMem (0x40004C04, 0x0004 Bytes, ...) -- CPU_ReadMem(4 bytes @ 0x40004C04) - Data: 63 00 00 00  returns 0x00 (0001ms, 0294ms total)
T14E8 021:359 JLINK_Step() -- CPU_ReadMem(64 bytes @ 0x08001380) -- Updating C cache (64 bytes @ 0x08001380) -- Read from C cache (2 bytes @ 0x08001380) -- CPU_ReadMem(4 bytes @ 0xE000ED18) -- CPU_WriteMem(4 bytes @ 0xE000ED18) -- CPU_ReadMem(4 bytes @ 0xE000ED18) -- CPU_WriteMem(4 bytes @ 0xE000ED18) -- Simulated  returns 0x00 (0004ms, 0298ms total)
T14E8 021:363 JLINK_ReadReg(R15 (PC))  returns 0x08001382 (0000ms, 0298ms total)
T14E8 021:363 JLINK_ReadReg(XPSR)  returns 0x21000044 (0000ms, 0298ms total)
T14E8 021:363 JLINK_SetBPEx(Addr = 0x08001380, Type = 0xFFFFFFF2)  returns 0x00000004 (0000ms, 0298ms total)
T14E8 021:363 JLINK_Go() -- CPU_WriteMem(4 bytes @ 0xE0002000) -- CPU_ReadMem(4 bytes @ 0xE0001000) -- CPU_WriteMem(4 bytes @ 0xE0001004) (0004ms, 0302ms total)
T14E8 021:467 JLINK_IsHalted()  returns FALSE (0000ms, 0302ms total)
T14E8 021:568 JLINK_IsHalted()  returns TRUE (0003ms, 0305ms total)
T14E8 021:571 JLINK_Halt()  returns 0x00 (0000ms, 0302ms total)
T14E8 021:571 JLINK_IsHalted()  returns TRUE (0000ms, 0302ms total)
T14E8 021:571 JLINK_IsHalted()  returns TRUE (0000ms, 0302ms total)
T14E8 021:571 JLINK_IsHalted()  returns TRUE (0000ms, 0302ms total)
T14E8 021:571 JLINK_ReadReg(R15 (PC))  returns 0x08001380 (0000ms, 0302ms total)
T14E8 021:571 JLINK_ReadReg(XPSR)  returns 0x61000044 (0000ms, 0302ms total)
T14E8 021:571 JLINK_ClrBPEx(BPHandle = 0x00000004)  returns 0x00 (0000ms, 0302ms total)
T14E8 021:571 JLINK_ReadMemU32(0xE000ED30, 0x0001 Items, ...) -- CPU_ReadMem(4 bytes @ 0xE000ED30) - Data: 03 00 00 00  returns 0x01 (0002ms, 0304ms total)
T14E8 021:573 JLINK_ReadMemU32(0xE0001028, 0x0001 Items, ...) -- CPU_ReadMem(4 bytes @ 0xE0001028) - Data: 00 00 00 00  returns 0x01 (0000ms, 0304ms total)
T14E8 021:573 JLINK_ReadMemU32(0xE0001038, 0x0001 Items, ...) -- CPU_ReadMem(4 bytes @ 0xE0001038) - Data: 00 02 00 00  returns 0x01 (0000ms, 0304ms total)
T14E8 021:573 JLINK_ReadMemU32(0xE0001048, 0x0001 Items, ...) -- CPU_ReadMem(4 bytes @ 0xE0001048) - Data: 00 00 00 00  returns 0x01 (0001ms, 0305ms total)
T14E8 021:574 JLINK_ReadMemU32(0xE0001058, 0x0001 Items, ...) -- CPU_ReadMem(4 bytes @ 0xE0001058) - Data: 00 00 00 00  returns 0x01 (0000ms, 0305ms total)
T14E8 021:575 JLINK_ReadReg(R0)  returns 0x00000000 (0000ms, 0305ms total)
T14E8 021:575 JLINK_ReadReg(R1)  returns 0x00000000 (0000ms, 0305ms total)
T14E8 021:575 JLINK_ReadReg(R2)  returns 0x00000000 (0000ms, 0305ms total)
T14E8 021:575 JLINK_ReadReg(R3)  returns 0x00000000 (0000ms, 0305ms total)
T14E8 021:575 JLINK_ReadReg(R4)  returns 0x10000000 (0000ms, 0305ms total)
T14E8 021:575 JLINK_ReadReg(R5)  returns 0xE000ED04 (0000ms, 0305ms total)
T14E8 021:575 JLINK_ReadReg(R6)  returns 0x20003DBC (0000ms, 0305ms total)
T14E8 021:575 JLINK_ReadReg(R7)  returns 0x00000000 (0000ms, 0305ms total)
T14E8 021:575 JLINK_ReadReg(R8)  returns 0x00000000 (0000ms, 0305ms total)
T14E8 021:575 JLINK_ReadReg(R9)  returns 0x00000000 (0000ms, 0305ms total)
T14E8 021:575 JLINK_ReadReg(R10)  returns 0x00000000 (0000ms, 0305ms total)
T14E8 021:575 JLINK_ReadReg(R11)  returns 0x00000000 (0000ms, 0305ms total)
T14E8 021:575 JLINK_ReadReg(R12)  returns 0x00000000 (0000ms, 0305ms total)
T14E8 021:575 JLINK_ReadReg(R13 (SP))  returns 0x20005DB8 (0000ms, 0305ms total)
T14E8 021:575 JLINK_ReadReg(R14)  returns 0xFFFFFFFD (0000ms, 0305ms total)
T14E8 021:575 JLINK_ReadReg(R15 (PC))  returns 0x08001380 (0001ms, 0306ms total)
T14E8 021:576 JLINK_ReadReg(XPSR)  returns 0x61000044 (0000ms, 0306ms total)
T14E8 021:576 JLINK_ReadReg(MSP)  returns 0x20005DB8 (0000ms, 0306ms total)
T14E8 021:576 JLINK_ReadReg(PSP)  returns 0x20002300 (0000ms, 0306ms total)
T14E8 021:576 JLINK_ReadReg(CFBP)  returns 0x00000000 (0000ms, 0306ms total)
T14E8 021:576 JLINK_ReadReg(FPSCR)  returns 0x00000000 (0005ms, 0311ms total)
T14E8 021:581 JLINK_ReadReg(FPS0)  returns 0x40C00000 (0000ms, 0311ms total)
T14E8 021:581 JLINK_ReadReg(FPS1)  returns 0x00000000 (0000ms, 0311ms total)
T14E8 021:581 JLINK_ReadReg(FPS2)  returns 0x00000000 (0000ms, 0311ms total)
T14E8 021:581 JLINK_ReadReg(FPS3)  returns 0x00000000 (0000ms, 0311ms total)
T14E8 021:581 JLINK_ReadReg(FPS4)  returns 0x00000000 (0000ms, 0311ms total)
T14E8 021:581 JLINK_ReadReg(FPS5)  returns 0x00000000 (0000ms, 0311ms total)
T14E8 021:581 JLINK_ReadReg(FPS6)  returns 0x00000000 (0000ms, 0311ms total)
T14E8 021:581 JLINK_ReadReg(FPS7)  returns 0x00000000 (0000ms, 0311ms total)
T14E8 021:581 JLINK_ReadReg(FPS8)  returns 0x00000000 (0000ms, 0311ms total)
T14E8 021:581 JLINK_ReadReg(FPS9)  returns 0x00000000 (0000ms, 0311ms total)
T14E8 021:581 JLINK_ReadReg(FPS10)  returns 0x00000000 (0000ms, 0311ms total)
T14E8 021:581 JLINK_ReadReg(FPS11)  returns 0x00000000 (0000ms, 0311ms total)
T14E8 021:581 JLINK_ReadReg(FPS12)  returns 0x00000000 (0001ms, 0312ms total)
T14E8 021:582 JLINK_ReadReg(FPS13)  returns 0x00000000 (0000ms, 0312ms total)
T14E8 021:582 JLINK_ReadReg(FPS14)  returns 0x00000000 (0000ms, 0312ms total)
T14E8 021:582 JLINK_ReadReg(FPS15)  returns 0x00000000 (0000ms, 0312ms total)
T14E8 021:582 JLINK_ReadReg(FPS16)  returns 0x3F800000 (0000ms, 0312ms total)
T14E8 021:582 JLINK_ReadReg(FPS17)  returns 0x40000000 (0000ms, 0312ms total)
T14E8 021:582 JLINK_ReadReg(FPS18)  returns 0x40400000 (0000ms, 0312ms total)
T14E8 021:582 JLINK_ReadReg(FPS19)  returns 0x00000000 (0000ms, 0312ms total)
T14E8 021:582 JLINK_ReadReg(FPS20)  returns 0x00000000 (0000ms, 0312ms total)
T14E8 021:582 JLINK_ReadReg(FPS21)  returns 0x00000000 (0000ms, 0312ms total)
T14E8 021:582 JLINK_ReadReg(FPS22)  returns 0x00000000 (0000ms, 0312ms total)
T14E8 021:582 JLINK_ReadReg(FPS23)  returns 0x00000000 (0000ms, 0312ms total)
T14E8 021:582 JLINK_ReadReg(FPS24)  returns 0x00000000 (0000ms, 0312ms total)
T14E8 021:582 JLINK_ReadReg(FPS25)  returns 0x00000000 (0000ms, 0312ms total)
T14E8 021:582 JLINK_ReadReg(FPS26)  returns 0x00000000 (0000ms, 0312ms total)
T14E8 021:582 JLINK_ReadReg(FPS27)  returns 0x00000000 (0000ms, 0312ms total)
T14E8 021:582 JLINK_ReadReg(FPS28)  returns 0x00000000 (0000ms, 0312ms total)
T14E8 021:582 JLINK_ReadReg(FPS29)  returns 0x00000000 (0000ms, 0312ms total)
T14E8 021:582 JLINK_ReadReg(FPS30)  returns 0x00000000 (0000ms, 0312ms total)
T14E8 021:582 JLINK_ReadReg(FPS31)  returns 0x00000000 (0000ms, 0312ms total)
T7EFC 021:583 JLINK_ReadMem (0x20005DDC, 0x0004 Bytes, ...) -- CPU_ReadMem(64 bytes @ 0x20005DC0) -- Updating C cache (64 bytes @ 0x20005DC0) -- Read from C cache (4 bytes @ 0x20005DDC) - Data: FD FF FF FF  returns 0x00 (0001ms, 0313ms total)
T7EFC 021:584 JLINK_ReadMem (0x20002318, 0x0004 Bytes, ...) -- CPU_ReadMem(64 bytes @ 0x20002300) -- Updating C cache (64 bytes @ 0x20002300) -- Read from C cache (4 bytes @ 0x20002318) - Data: E4 1D 00 08  returns 0x00 (0001ms, 0314ms total)
T7EFC 021:585 JLINK_ReadMem (0x2000231C, 0x0004 Bytes, ...) -- Read from C cache (4 bytes @ 0x2000231C) - Data: 00 60 00 61  returns 0x00 (0000ms, 0314ms total)
T7EFC 021:585 JLINK_ReadMem (0x20002314, 0x0004 Bytes, ...) -- Read from C cache (4 bytes @ 0x20002314) - Data: F1 1E 00 08  returns 0x00 (0001ms, 0315ms total)
T7EFC 021:586 JLINK_ReadMem (0xE000ED28, 0x0004 Bytes, ...) -- CPU_ReadMem(4 bytes @ 0xE000ED28) - Data: 00 00 00 00  returns 0x00 (0000ms, 0315ms total)
T7EFC 021:586 JLINK_ReadMem (0x2000232C, 0x0004 Bytes, ...) -- Read from C cache (4 bytes @ 0x2000232C) - Data: F1 1E 00 08  returns 0x00 (0000ms, 0315ms total)
T7EFC 021:586 JLINK_ReadMem (0x20002320, 0x0004 Bytes, ...) -- Read from C cache (4 bytes @ 0x20002320) - Data: 00 00 00 10  returns 0x00 (0000ms, 0315ms total)
T7EFC 021:586 JLINK_ReadMem (0x20002324, 0x0004 Bytes, ...) -- Read from C cache (4 bytes @ 0x20002324) - Data: 04 ED 00 E0  returns 0x00 (0000ms, 0315ms total)
T7EFC 021:586 JLINK_ReadMem (0x20002328, 0x0004 Bytes, ...) -- Read from C cache (4 bytes @ 0x20002328) - Data: F4 3C 00 20  returns 0x00 (0001ms, 0316ms total)
T7EFC 021:588 JLINK_ReadMem (0x40005004, 0x0004 Bytes, ...) -- CPU_ReadMem(4 bytes @ 0x40005004) - Data: 00 00 00 00  returns 0x00 (0001ms, 0317ms total)
T7EFC 021:589 JLINK_ReadMem (0x2000000C, 0x0004 Bytes, ...) -- CPU_ReadMem(64 bytes @ 0x20000000) -- Updating C cache (64 bytes @ 0x20000000) -- Read from C cache (4 bytes @ 0x2000000C) - Data: D8 21 00 20  returns 0x00 (0001ms, 0318ms total)
T7EFC 021:590 JLINK_ReadMem (0x20005900, 0x0002 Bytes, ...) -- CPU_ReadMem(64 bytes @ 0x20005900) -- Updating C cache (64 bytes @ 0x20005900) -- Read from C cache (2 bytes @ 0x20005900) - Data: 00 00  returns 0x00 (0001ms, 0319ms total)
T7EFC 021:591 JLINK_ReadMem (0x200058C4, 0x0001 Bytes, ...) -- CPU_ReadMem(64 bytes @ 0x200058C0) -- Updating C cache (64 bytes @ 0x200058C0) -- Read from C cache (1 bytes @ 0x200058C4) - Data: 01  returns 0x00 (0001ms, 0320ms total)
T7EFC 021:595 JLINK_ReadMem (0x20005934, 0x0020 Bytes, ...) -- CPU_ReadMem(64 bytes @ 0x20005940) -- Updating C cache (64 bytes @ 0x20005940) -- Read from C cache (32 bytes @ 0x20005934) - Data: A0 04 00 00 DC A1 10 00 00 00 00 C7 45 00 00 00 ...  returns 0x00 (0001ms, 0321ms total)
T7EFC 021:596 JLINK_ReadMem (0x40004C04, 0x0004 Bytes, ...) -- CPU_ReadMem(4 bytes @ 0x40004C04) - Data: 63 00 00 00  returns 0x00 (0002ms, 0323ms total)
T14E8 024:281 JLINK_Go() -- CPU_ReadMem(4 bytes @ 0xE0001000) -- CPU_WriteMem(4 bytes @ 0xE0002008) (0003ms, 0326ms total)
T14E8 024:385 JLINK_IsHalted()  returns FALSE (0001ms, 0327ms total)
T14E8 024:486 JLINK_IsHalted()  returns FALSE (0000ms, 0326ms total)
T14E8 024:587 JLINK_IsHalted()  returns FALSE (0000ms, 0326ms total)
T14E8 024:689 JLINK_IsHalted()  returns FALSE (0000ms, 0326ms total)
T14E8 024:789 JLINK_IsHalted()  returns FALSE (0000ms, 0326ms total)
T14E8 024:891 JLINK_ReadMemU32(0xE0001004, 0x0001 Items, ...) -- CPU is running -- CPU_ReadMem(4 bytes @ 0xE0001004) - Data: 14 3A 5C 0C  returns 0x01 (0000ms, 0326ms total)
T7EFC 024:893 JLINK_ReadMem (0x40005004, 0x0004 Bytes, ...) -- CPU is running -- CPU_ReadMem(4 bytes @ 0x40005004) - Data: 00 00 00 00  returns 0x00 (0001ms, 0327ms total)
T7EFC 024:894 JLINK_ReadMem (0x2000000C, 0x0004 Bytes, ...) -- CPU is running -- CPU_ReadMem(4 bytes @ 0x2000000C) - Data: D8 21 00 20  returns 0x00 (0001ms, 0328ms total)
T7EFC 024:895 JLINK_ReadMem (0x20005900, 0x0002 Bytes, ...) -- CPU is running -- CPU_ReadMem(2 bytes @ 0x20005900) - Data: 00 00  returns 0x00 (0001ms, 0329ms total)
T7EFC 024:896 JLINK_ReadMem (0x200058C4, 0x0001 Bytes, ...) -- CPU is running -- CPU_ReadMem(1 bytes @ 0x200058C4) - Data: 01  returns 0x00 (0001ms, 0330ms total)
T7EFC 024:901 JLINK_ReadMem (0x20005934, 0x0020 Bytes, ...) -- CPU is running -- CPU_ReadMem(32 bytes @ 0x20005934) - Data: A0 04 00 00 DC A1 10 00 00 00 00 C7 45 00 00 00 ...  returns 0x00 (0001ms, 0331ms total)
T7EFC 024:902 JLINK_ReadMem (0x40004C04, 0x0004 Bytes, ...) -- CPU is running -- CPU_ReadMem(4 bytes @ 0x40004C04) - Data: 63 00 00 00  returns 0x00 (0001ms, 0332ms total)
T14E8 024:903 JLINK_IsHalted()  returns FALSE (0001ms, 0333ms total)
T14E8 025:004 JLINK_IsHalted()  returns FALSE (0001ms, 0333ms total)
T14E8 025:106 JLINK_IsHalted()  returns FALSE (0000ms, 0332ms total)
T14E8 025:207 JLINK_IsHalted()  returns FALSE (0001ms, 0333ms total)
T14E8 025:309 JLINK_IsHalted()  returns FALSE (0001ms, 0333ms total)
T14E8 025:410 JLINK_ReadMemU32(0xE0001004, 0x0001 Items, ...) -- CPU is running - Data: 14 3A 5C 0C  returns 0x01 (0000ms, 0332ms total)
T7EFC 025:413 JLINK_ReadMem (0x40005004, 0x0004 Bytes, ...) -- CPU is running -- CPU_ReadMem(4 bytes @ 0x40005004) - Data: 00 00 00 00  returns 0x00 (0001ms, 0333ms total)
T7EFC 025:414 JLINK_ReadMem (0x2000000C, 0x0004 Bytes, ...) -- CPU is running -- CPU_ReadMem(4 bytes @ 0x2000000C) - Data: D8 21 00 20  returns 0x00 (0000ms, 0333ms total)
T7EFC 025:415 JLINK_ReadMem (0x20005900, 0x0002 Bytes, ...) -- CPU is running -- CPU_ReadMem(2 bytes @ 0x20005900) - Data: 00 00  returns 0x00 (0000ms, 0334ms total)
T7EFC 025:415 JLINK_ReadMem (0x200058C4, 0x0001 Bytes, ...) -- CPU is running -- CPU_ReadMem(1 bytes @ 0x200058C4) - Data: 01  returns 0x00 (0001ms, 0335ms total)
T7EFC 025:421 JLINK_ReadMem (0x20005934, 0x0020 Bytes, ...) -- CPU is running -- CPU_ReadMem(32 bytes @ 0x20005934) - Data: A0 04 00 00 DC A1 10 00 00 00 00 C7 45 00 00 00 ...  returns 0x00 (0001ms, 0336ms total)
T7EFC 025:422 JLINK_ReadMem (0x40004C04, 0x0004 Bytes, ...) -- CPU is running -- CPU_ReadMem(4 bytes @ 0x40004C04) - Data: 63 00 00 00  returns 0x00 (0001ms, 0337ms total)
T14E8 025:424 JLINK_IsHalted()  returns FALSE (0000ms, 0337ms total)
T14E8 025:526 JLINK_IsHalted()  returns FALSE (0001ms, 0338ms total)
T14E8 025:628 JLINK_IsHalted()  returns FALSE (0001ms, 0338ms total)
T14E8 025:729 JLINK_IsHalted()  returns FALSE (0001ms, 0338ms total)
T14E8 025:831 JLINK_IsHalted()  returns FALSE (0000ms, 0337ms total)
T14E8 025:931 JLINK_ReadMemU32(0xE0001004, 0x0001 Items, ...) -- CPU is running - Data: 14 3A 5C 0C  returns 0x01 (0000ms, 0337ms total)
T7EFC 025:934 JLINK_ReadMem (0x40005004, 0x0004 Bytes, ...) -- CPU is running -- CPU_ReadMem(4 bytes @ 0x40005004) - Data: 00 00 00 00  returns 0x00 (0000ms, 0337ms total)
T7EFC 025:934 JLINK_ReadMem (0x2000000C, 0x0004 Bytes, ...) -- CPU is running -- CPU_ReadMem(4 bytes @ 0x2000000C) - Data: D8 21 00 20  returns 0x00 (0001ms, 0338ms total)
T7EFC 025:935 JLINK_ReadMem (0x20005900, 0x0002 Bytes, ...) -- CPU is running -- CPU_ReadMem(2 bytes @ 0x20005900) - Data: 00 00  returns 0x00 (0001ms, 0339ms total)
T7EFC 025:936 JLINK_ReadMem (0x200058C4, 0x0001 Bytes, ...) -- CPU is running -- CPU_ReadMem(1 bytes @ 0x200058C4) - Data: 01  returns 0x00 (0000ms, 0339ms total)
T7EFC 025:942 JLINK_ReadMem (0x20005934, 0x0020 Bytes, ...) -- CPU is running -- CPU_ReadMem(32 bytes @ 0x20005934) - Data: A0 04 00 00 DC A1 10 00 00 00 00 C7 45 00 00 00 ...  returns 0x00 (0002ms, 0341ms total)
T7EFC 025:944 JLINK_ReadMem (0x40004C04, 0x0004 Bytes, ...) -- CPU is running -- CPU_ReadMem(4 bytes @ 0x40004C04) - Data: 63 00 00 00  returns 0x00 (0000ms, 0341ms total)
T14E8 025:944 JLINK_IsHalted()  returns FALSE (0002ms, 0343ms total)
T14E8 026:046 JLINK_IsHalted()  returns FALSE (0000ms, 0341ms total)
T14E8 026:147 JLINK_IsHalted()  returns FALSE (0001ms, 0342ms total)
T14E8 026:249 JLINK_IsHalted()  returns FALSE (0000ms, 0341ms total)
T14E8 026:351 JLINK_IsHalted()  returns FALSE (0001ms, 0342ms total)
T14E8 026:453 JLINK_ReadMemU32(0xE0001004, 0x0001 Items, ...) -- CPU is running - Data: 14 3A 5C 0C  returns 0x01 (0000ms, 0341ms total)
T7EFC 026:453 JLINK_ReadMem (0x40005004, 0x0004 Bytes, ...) -- CPU is running -- CPU_ReadMem(4 bytes @ 0x40005004) - Data: 00 00 00 00  returns 0x00 (0001ms, 0342ms total)
T7EFC 026:454 JLINK_ReadMem (0x2000000C, 0x0004 Bytes, ...) -- CPU is running -- CPU_ReadMem(4 bytes @ 0x2000000C) - Data: D8 21 00 20  returns 0x00 (0002ms, 0344ms total)
T7EFC 026:456 JLINK_ReadMem (0x20005900, 0x0002 Bytes, ...) -- CPU is running -- CPU_ReadMem(2 bytes @ 0x20005900) - Data: 00 00  returns 0x00 (0001ms, 0345ms total)
T7EFC 026:457 JLINK_ReadMem (0x200058C4, 0x0001 Bytes, ...) -- CPU is running -- CPU_ReadMem(1 bytes @ 0x200058C4) - Data: 01  returns 0x00 (0001ms, 0346ms total)
T7EFC 026:463 JLINK_ReadMem (0x20005934, 0x0020 Bytes, ...) -- CPU is running -- CPU_ReadMem(32 bytes @ 0x20005934) - Data: A0 04 00 00 DC A1 10 00 00 00 00 C7 45 00 00 00 ...  returns 0x00 (0001ms, 0347ms total)
T7EFC 026:464 JLINK_ReadMem (0x40004C04, 0x0004 Bytes, ...) -- CPU is running -- CPU_ReadMem(4 bytes @ 0x40004C04) - Data: 63 00 00 00  returns 0x00 (0001ms, 0348ms total)
T14E8 026:465 JLINK_IsHalted()  returns FALSE (0001ms, 0349ms total)
T14E8 026:567 JLINK_IsHalted()  returns FALSE (0000ms, 0348ms total)
T7EFC 026:581 JLINK_ReadMem (0x200021D8, 0x0000 Bytes, ...) - Data:  returns 0x00 (0000ms, 0348ms total)
T7EFC 026:581 JLINK_ReadMem (0x2000000C, 0x0004 Bytes, ...) -- CPU is running -- CPU_ReadMem(4 bytes @ 0x2000000C) - Data: D8 21 00 20  returns 0x00 (0001ms, 0349ms total)
T7EFC 026:582 JLINK_ReadMem (0x200021D8, 0x0000 Bytes, ...) - Data:  returns 0x00 (0000ms, 0349ms total)
T7EFC 026:610 JLINK_ReadMem (0x2000000C, 0x0004 Bytes, ...) -- CPU is running -- CPU_ReadMem(4 bytes @ 0x2000000C) - Data: D8 21 00 20  returns 0x00 (0001ms, 0350ms total)
T7EFC 026:611 JLINK_ReadMem (0x200021D8, 0x0000 Bytes, ...) - Data:  returns 0x00 (0000ms, 0350ms total)
T14E8 026:668 JLINK_IsHalted()  returns FALSE (0001ms, 0351ms total)
T14E8 026:770 JLINK_IsHalted()  returns FALSE (0001ms, 0351ms total)
T14E8 026:872 JLINK_IsHalted()  returns FALSE (0000ms, 0350ms total)
T14E8 026:973 JLINK_ReadMemU32(0xE0001004, 0x0001 Items, ...) -- CPU is running - Data: 14 3A 5C 0C  returns 0x01 (0000ms, 0350ms total)
T7EFC 026:973 JLINK_ReadMem (0x40005004, 0x0004 Bytes, ...) -- CPU is running -- CPU_ReadMem(4 bytes @ 0x40005004) - Data: 00 00 00 00  returns 0x00 (0001ms, 0351ms total)
T7EFC 026:974 JLINK_ReadMem (0x2000000C, 0x0004 Bytes, ...) -- CPU is running -- CPU_ReadMem(4 bytes @ 0x2000000C) - Data: D8 21 00 20  returns 0x00 (0001ms, 0352ms total)
T7EFC 026:975 JLINK_ReadMem (0x200021D8, 0x0000 Bytes, ...) - Data:  returns 0x00 (0000ms, 0352ms total)
T7EFC 026:975 JLINK_ReadMem (0x20005900, 0x0002 Bytes, ...) -- CPU is running -- CPU_ReadMem(2 bytes @ 0x20005900) - Data: 00 00  returns 0x00 (0001ms, 0353ms total)
T7EFC 026:976 JLINK_ReadMem (0x200058C4, 0x0001 Bytes, ...) -- CPU is running -- CPU_ReadMem(1 bytes @ 0x200058C4) - Data: 01  returns 0x00 (0001ms, 0354ms total)
T7EFC 026:982 JLINK_ReadMem (0x20005934, 0x0020 Bytes, ...) -- CPU is running -- CPU_ReadMem(32 bytes @ 0x20005934) - Data: A0 04 00 00 DC A1 10 00 00 00 00 C7 45 00 00 00 ...  returns 0x00 (0001ms, 0355ms total)
T7EFC 026:983 JLINK_ReadMem (0x40004C04, 0x0004 Bytes, ...) -- CPU is running -- CPU_ReadMem(4 bytes @ 0x40004C04) - Data: 63 00 00 00  returns 0x00 (0001ms, 0356ms total)
T14E8 026:985 JLINK_IsHalted()  returns FALSE (0000ms, 0356ms total)
T14E8 027:086 JLINK_IsHalted()  returns FALSE (0001ms, 0357ms total)
T7EFC 027:152 JLINK_ReadMem (0x2000000C, 0x0004 Bytes, ...) -- CPU is running -- CPU_ReadMem(4 bytes @ 0x2000000C) - Data: D8 21 00 20  returns 0x00 (0001ms, 0357ms total)
T7EFC 027:153 JLINK_ReadMem (0x200021D8, 0x0000 Bytes, ...) - Data:  returns 0x00 (0000ms, 0357ms total)
T14E8 027:188 JLINK_IsHalted()  returns FALSE (0000ms, 0357ms total)
T14E8 027:290 JLINK_IsHalted()  returns FALSE (0000ms, 0357ms total)
T14E8 027:391 JLINK_IsHalted()  returns FALSE (0001ms, 0358ms total)
T14E8 027:493 JLINK_ReadMemU32(0xE0001004, 0x0001 Items, ...) -- CPU is running - Data: 14 3A 5C 0C  returns 0x01 (0000ms, 0357ms total)
T7EFC 027:496 JLINK_ReadMem (0x40005004, 0x0004 Bytes, ...) -- CPU is running -- CPU_ReadMem(4 bytes @ 0x40005004) - Data: 00 00 00 00  returns 0x00 (0000ms, 0357ms total)
T7EFC 027:497 JLINK_ReadMem (0x2000000C, 0x0004 Bytes, ...) -- CPU is running -- CPU_ReadMem(4 bytes @ 0x2000000C) - Data: D8 21 00 20  returns 0x00 (0001ms, 0358ms total)
T7EFC 027:498 JLINK_ReadMem (0x20005900, 0x0002 Bytes, ...) -- CPU is running -- CPU_ReadMem(2 bytes @ 0x20005900) - Data: 00 00  returns 0x00 (0001ms, 0359ms total)
T7EFC 027:499 JLINK_ReadMem (0x200058C4, 0x0001 Bytes, ...) -- CPU is running -- CPU_ReadMem(1 bytes @ 0x200058C4) - Data: 01  returns 0x00 (0001ms, 0360ms total)
T7EFC 027:504 JLINK_ReadMem (0x20005934, 0x0020 Bytes, ...) -- CPU is running -- CPU_ReadMem(32 bytes @ 0x20005934) - Data: A0 04 00 00 DC A1 10 00 00 00 00 C7 45 00 00 00 ...  returns 0x00 (0002ms, 0362ms total)
T7EFC 027:506 JLINK_ReadMem (0x40004C04, 0x0004 Bytes, ...) -- CPU is running -- CPU_ReadMem(4 bytes @ 0x40004C04) - Data: 63 00 00 00  returns 0x00 (0001ms, 0363ms total)
T14E8 027:507 JLINK_IsHalted()  returns FALSE (0001ms, 0364ms total)
T14E8 027:608 JLINK_IsHalted()  returns FALSE (0001ms, 0364ms total)
T14E8 027:710 JLINK_IsHalted()  returns FALSE (0000ms, 0363ms total)
